freq	z_Re	z_Im
2.7000000000000	1.7020274038214	-1.0397224874842
2.7100000000000	1.7096963573280	-1.0167171873792
2.7200000000000	1.7165198694761	-0.99373214068955
2.7300000000000	1.7225114298540	-0.97080710109912
2.7400000000000	1.7276867252094	-0.94798017158577
2.7500000000000	1.7320634539840	-0.92528767932869
2.7600000000000	1.7356611355768	-0.90276407170277
2.7700000000000	1.7385009167674	-0.88044183307033
2.7800000000000	1.7406053775841	-0.85835142180443
2.7900000000000	1.7419983387210	-0.83652122673750
2.8000000000000	1.7427046724106	-0.81497754202458
2.8100000000000	1.7427501184443	-0.79374455924426
2.8200000000000	1.7421611068095	-0.77284437543099
2.8300000000000	1.7409645881876	-0.75229701563865
2.8400000000000	1.7391878733342	-0.73212046857591
2.8500000000000	1.7368584821463	-0.71233073382489
2.8600000000000	1.7340040030162	-0.69294187915368
2.8700000000000	1.7306519628797	-0.67396610645728
2.8800000000000	1.7268297081877	-0.65541382490554
2.8900000000000	1.7225642968746	-0.63729372993919
2.9000000000000	1.7178824012507	-0.61961288683007
2.9100000000000	1.7128102216266	-0.60237681760878
2.9200000000000	1.7073734103700	-0.58558959025620
2.9300000000000	1.7015970060084	-0.56925390915404
2.9400000000000	1.6955053769223	-0.55337120589067
2.9500000000000	1.6891221741149	-0.53794172961875
2.9600000000000	1.6824702925082	-0.52296463626112
2.9700000000000	1.6755718401847	-0.50843807595667
2.9800000000000	1.6684481149789	-0.49435927823022
2.9900000000000	1.6611195878192	-0.48072463445612
3.0000000000000	1.6536058922199	-0.46752977726622
3.0100000000000	1.6459258193383	-0.45476965662650
3.0200000000000	1.6380973180247	-0.44243861237421
3.0300000000000	1.6301374993169	-0.43053044306806
3.0400000000000	1.6220626448560	-0.41903847105824
3.0500000000000	1.6138882187272	-0.40795560373062
3.0600000000000	1.6056288822622	-0.39727439092116
3.0700000000000	1.5972985113682	-0.38698707853234
3.0800000000000	1.5889102159835	-0.37708565841365
3.0900000000000	1.5804763612904	-0.36756191459375
3.1000000000000	1.5720085903476	-0.35840746597230
3.1100000000000	1.5635178478359	-0.34961380559645
3.1200000000000	1.5550144046411	-0.34117233665948
3.1300000000000	1.5465078830258	-0.33307440536900
3.1400000000000	1.5380072821690	-0.32531133083833
3.1500000000000	1.5295210038781	-0.31787443215927
3.1600000000000	1.5210568783021	-0.31075505281596
3.1700000000000	1.5126221894959	-0.30394458259983
3.1800000000000	1.5042237007060	-0.29743447718405
3.1900000000000	1.4958676792685	-0.29121627551291
3.2000000000000	1.4875599210247	-0.28528161515803
3.2100000000000	1.4793057741762	-0.27962224578800
3.2200000000000	1.4711101625172	-0.27423004089317
3.2300000000000	1.4629776079902	-0.26909700790104
3.2400000000000	1.4549122525268	-0.26421529681162
3.2500000000000	1.4469178791423	-0.25957720747543
3.2600000000000	1.4389979322637	-0.25517519563054
3.2700000000000	1.4311555372759	-0.25100187780786
3.2800000000000	1.4233935192804	-0.24705003520788
3.2900000000000	1.4157144210658	-0.24331261664496
3.3000000000000	1.4081205202919	-0.23978274064938
3.3100000000000	1.4006138458988	-0.23645369681078
3.3200000000000	1.3931961937500	-0.23331894644104
3.3300000000000	1.3858691415263	-0.23037212262844
3.3400000000000	1.3786340628874	-0.22760702975012
3.3500000000000	1.3714921409201	-0.22501764250402
3.3600000000000	1.3644443808951	-0.22259810451693
3.3700000000000	1.3574916223544	-0.22034272658069
3.3800000000000	1.3506345505517	-0.21824598456386
3.3900000000000	1.3438737072709	-0.21630251704253
3.4000000000000	1.3372095010461	-0.21450712268965
3.4100000000000	1.3306422168073	-0.21285475745921
3.4200000000000	1.3241720249766	-0.21134053159766
3.4300000000000	1.3177989900396	-0.20995970651252
3.4400000000000	1.3115230786136	-0.20870769152468
3.4500000000000	1.3053441670393	-0.20758004052870
3.4600000000000	1.2992620485159	-0.20657244858276
3.4700000000000	1.2932764398038	-0.20568074844756
3.4800000000000	1.2873869875163	-0.20490090709178
3.4900000000000	1.2815932740207	-0.20422902217938
3.5000000000000	1.2758948229698	-0.20366131855254
3.5100000000000	1.2702911044829	-0.20319414472251
3.5200000000000	1.2647815399961	-0.20282396937882
3.5300000000000	1.2593655067981	-0.20254737792653
3.5400000000000	1.2540423422716	-0.20236106905945
3.5500000000000	1.2488113478535	-0.20226185137664
3.5600000000000	1.2436717927338	-0.20224664004807
3.5700000000000	1.2386229173035	-0.20231245353484
3.5800000000000	1.2336639363709	-0.20245641036830
3.5900000000000	1.2287940421558	-0.20267572599164
3.6000000000000	1.2240124070773	-0.20296770966712
3.6100000000000	1.2193181863462	-0.20332976145129
3.6200000000000	1.2147105203741	-0.20375936924009
3.6300000000000	1.2101885370110	-0.20425410588532
3.6400000000000	1.2057513536200	-0.20481162638340
3.6500000000000	1.2013980790015	-0.20542966513716
3.6600000000000	1.1971278151744	-0.20610603329091
3.6700000000000	1.1929396590237	-0.20683861613877
3.6800000000000	1.1888327038237	-0.20762537060617
3.6900000000000	1.1848060406433	-0.20846432280387
3.7000000000000	1.1808587596423	-0.20935356565395
3.7100000000000	1.1769899512641	-0.21029125658695
3.7200000000000	1.1731987073334	-0.21127561530913
3.7300000000000	1.1694841220630	-0.21230492163880
3.7400000000000	1.1658452929776	-0.21337751341046
3.7500000000000	1.1622813217583	-0.21449178444557
3.7600000000000	1.1587913150146	-0.21564618258844
3.7700000000000	1.1553743849872	-0.21683920780594
3.7800000000000	1.1520296501874	-0.21806941034946
3.7900000000000	1.1487562359774	-0.21933538897774
3.8000000000000	1.1455532750943	-0.22063578923891
3.8100000000000	1.1424199081226	-0.22196930181025
3.8200000000000	1.1393552839193	-0.22333466089415
3.8300000000000	1.1363585599930	-0.22473064266866
3.8400000000000	1.1334289028425	-0.22615606379103
3.8500000000000	1.1305654882555	-0.22760977995281
3.8600000000000	1.1277675015726	-0.22909068448492
3.8700000000000	1.1250341379164	-0.23059770701109
3.8800000000000	1.1223646023908	-0.23212981214827
3.8900000000000	1.1197581102509	-0.23368599825257
3.9000000000000	1.1172138870464	-0.23526529620913
3.9100000000000	1.1147311687403	-0.23686676826460
3.9200000000000	1.1123092018045	-0.23848950690087
3.9300000000000	1.1099472432951	-0.24013263374858
3.9400000000000	1.1076445609070	-0.24179529853911
3.9500000000000	1.1054004330115	-0.24347667809387
3.9600000000000	1.1032141486767	-0.24517597534943
3.9700000000000	1.1010850076732	-0.24689241841739
3.9800000000000	1.0990123204652	-0.24862525967772
3.9900000000000	1.0969954081889	-0.25037377490452
4.0000000000000	1.0950336026192	-0.25213726242284
4.0100000000000	1.0931262461258	-0.25391504229575
4.0200000000000	1.0912726916184	-0.25570645554036
4.0300000000000	1.0894723024842	-0.25751086337184
4.0400000000000	1.0877244525162	-0.25932764647450
4.0500000000000	1.0860285258345	-0.26115620429884
4.0600000000000	1.0843839168010	-0.26299595438376
4.0700000000000	1.0827900299270	-0.26484633170288
4.0800000000000	1.0812462797767	-0.26670678803426
4.0900000000000	1.0797520908647	-0.26857679135252
4.1000000000000	1.0783068975496	-0.27045582524264
4.1100000000000	1.0769101439233	-0.27234338833462
4.1200000000000	1.0755612836973	-0.27423899375821
4.1300000000000	1.0742597800852	-0.27614216861702
4.1400000000000	1.0730051056836	-0.27805245348128
4.1500000000000	1.0717967423496	-0.27996940189855
4.1600000000000	1.0706341810770	-0.28189257992173
4.1700000000000	1.0695169218703	-0.28382156565379
4.1800000000000	1.0684444736181	-0.28575594880845
4.1900000000000	1.0674163539646	-0.28769533028643
4.2000000000000	1.0664320891805	-0.28963932176652
4.2100000000000	1.0654912140332	-0.29158754531101
4.2200000000000	1.0645932716568	-0.29353963298496
4.2300000000000	1.0637378134213	-0.29549522648874
4.2400000000000	1.0629243988024	-0.29745397680340
4.2500000000000	1.0621525952507	-0.29941554384834
4.2600000000000	1.0614219780613	-0.30137959615099
4.2700000000000	1.0607321302442	-0.30334581052777
4.2800000000000	1.0600826423943	-0.30531387177620
4.2900000000000	1.0594731125630	-0.30728347237758
4.3000000000000	1.0589031461296	-0.30925431220992
4.3100000000000	1.0583723556738	-0.31122609827075
4.3200000000000	1.0578803608490	-0.31319854440933
4.3300000000000	1.0574267882569	-0.31517137106816
4.3400000000000	1.0570112713222	-0.31714430503314
4.3500000000000	1.0566334501696	-0.31911707919236
4.3600000000000	1.0562929715003	-0.32108943230299
4.3700000000000	1.0559894884712	-0.32306110876606
4.3800000000000	1.0557226605743	-0.32503185840888
4.3900000000000	1.0554921535177	-0.32700143627477
4.4000000000000	1.0552976391078	-0.32896960241977
4.4100000000000	1.0551387951325	-0.33093612171630
4.4200000000000	1.0550153052462	-0.33290076366324
4.4300000000000	1.0549268588555	-0.33486330220239
4.4400000000000	1.0548731510071	-0.33682351554104
4.4500000000000	1.0548538822758	-0.33878118598038
4.4600000000000	1.0548687586551	-0.34073609974960
4.4700000000000	1.0549174914482	-0.34268804684545
4.4800000000000	1.0549997971610	-0.34463682087706
4.4900000000000	1.0551153973960	-0.34658221891585
4.5000000000000	1.0552640187478	-0.34852404135036
4.5100000000000	1.0554453926997	-0.35046209174579
4.5200000000000	1.0556592555222	-0.35239617670813
4.5300000000000	1.0559053481719	-0.35432610575266
4.5400000000000	1.0561834161926	-0.35625169117674
4.5500000000000	1.0564932096175	-0.35817274793671
4.5600000000000	1.0568344828719	-0.36008909352869
4.5700000000000	1.0572069946787	-0.36200054787329
4.5800000000000	1.0576105079635	-0.36390693320399
4.5900000000000	1.0580447897624	-0.36580807395903
4.6000000000000	1.0585096111300	-0.36770379667686
4.6100000000000	1.0590047470491	-0.36959392989481
4.6200000000000	1.0595299763416	-0.37147830405106
4.6300000000000	1.0600850815805	-0.37335675138973
4.6400000000000	1.0606698490030	-0.37522910586885
4.6500000000000	1.0612840684248	-0.37709520307143
4.6600000000000	1.0619275331557	-0.37895488011921
4.6700000000000	1.0626000399160	-0.38080797558916
4.6800000000000	1.0633013887543	-0.38265432943267
4.6900000000000	1.0640313829660	-0.38449378289719
4.7000000000000	1.0647898290134	-0.38632617845043
4.7100000000000	1.0655765364460	-0.38815135970691
4.7200000000000	1.0663913178229	-0.38996917135681
4.7300000000000	1.0672339886351	-0.39177945909708
4.7400000000000	1.0681043672295	-0.39358206956476
4.7500000000000	1.0690022747336	-0.39537685027231
4.7600000000000	1.0699275349812	-0.39716364954505
4.7700000000000	1.0708799744385	-0.39894231646063
4.7800000000000	1.0718594221322	-0.40071270079027
4.7900000000000	1.0728657095772	-0.40247465294201
4.8000000000000	1.0738986707062	-0.40422802390569
4.8100000000000	1.0749581417993	-0.40597266519976
4.8200000000000	1.0760439614149	-0.40770842881966
4.8300000000000	1.0771559703214	-0.40943516718805
4.8400000000000	1.0782940114292	-0.41115273310650
4.8500000000000	1.0794579297242	-0.41286097970881
4.8600000000000	1.0806475722012	-0.41455976041586
4.8700000000000	1.0818627877986	-0.41624892889195
4.8800000000000	1.0831034273335	-0.41792833900259
4.8900000000000	1.0843693434379	-0.41959784477365
4.9000000000000	1.0856603904948	-0.42125730035196
4.9100000000000	1.0869764245755	-0.42290655996724
4.9200000000000	1.0883173033778	-0.42454547789529
4.9300000000000	1.0896828861637	-0.42617390842248
4.9400000000000	1.0910730336989	-0.42779170581156
4.9500000000000	1.0924876081925	-0.42939872426856
4.9600000000000	1.0939264732365	-0.43099481791102
4.9700000000000	1.0953894937470	-0.43257984073728
4.9800000000000	1.0968765359053	-0.43415364659698
4.9900000000000	1.0983874670994	-0.43571608916267
5.0000000000000	1.0999221558665	-0.43726702190248
5.0100000000000	1.1014804718355	-0.43880629805393
5.0200000000000	1.1030622856701	-0.44033377059874
5.0300000000000	1.1046674690127	-0.44184929223871
5.0400000000000	1.1062958944280	-0.44335271537264
5.0500000000000	1.1079474353482	-0.44484389207419
5.0600000000000	1.1096219660171	-0.44632267407077
5.0700000000000	1.1113193614361	-0.44778891272344
5.0800000000000	1.1130394973093	-0.44924245900767
5.0900000000000	1.1147822499903	-0.45068316349513
5.1000000000000	1.1165474964280	-0.45211087633636
5.1100000000000	1.1183351141138	-0.45352544724443
5.1200000000000	1.1201449810289	-0.45492672547939
5.1300000000000	1.1219769755914	-0.45631455983373
5.1400000000000	1.1238309766045	-0.45768879861866
5.1500000000000	1.1257068632048	-0.45904928965132
5.1600000000000	1.1276045148102	-0.46039588024282
5.1700000000000	1.1295238110696	-0.46172841718713
5.1800000000000	1.1314646318113	-0.46304674675090
5.1900000000000	1.1334268569927	-0.46435071466403
5.2000000000000	1.1354103666500	-0.46564016611115
5.2100000000000	1.1374150408482	-0.46691494572396
5.2200000000000	1.1394407596311	-0.46817489757427
5.2300000000000	1.1414874029723	-0.46941986516804
5.2400000000000	1.1435548507256	-0.47064969144013
5.2500000000000	1.1456429825761	-0.47186421874989
5.2600000000000	1.1477516779917	-0.47306328887761
5.2700000000000	1.1498808161744	-0.47424674302172
5.2800000000000	1.1520302760122	-0.47541442179685
5.2900000000000	1.1541999360313	-0.47656616523269
5.3000000000000	1.1563896743480	-0.47770181277364
5.3100000000000	1.1585993686217	-0.47882120327932
5.3200000000000	1.1608288960073	-0.47992417502578
5.3300000000000	1.1630781331081	-0.48101056570768
5.3400000000000	1.1653469559294	-0.48208021244108
5.3500000000000	1.1676352398319	-0.48313295176723
5.3600000000000	1.1699428594849	-0.48416861965705
5.3700000000000	1.1722696888208	-0.48518705151642
5.3800000000000	1.1746156009889	-0.48618808219234
5.3900000000000	1.1769804683100	-0.48717154597987
5.4000000000000	1.1793641622309	-0.48813727662986
5.4100000000000	1.1817665532792	-0.48908510735755
5.4200000000000	1.1841875110185	-0.49001487085192
5.4300000000000	1.1866269040037	-0.49092639928591
5.4400000000000	1.1890845997366	-0.49181952432746
5.4500000000000	1.1915604646216	-0.49269407715134
5.4600000000000	1.1940543639221	-0.49354988845181
5.4700000000000	1.1965661617166	-0.49438678845619
5.4800000000000	1.1990957208552	-0.49520460693911
5.4900000000000	1.2016429029168	-0.49600317323777
5.5000000000000	1.2042075681658	-0.49678231626789
5.5100000000000	1.2067895755102	-0.49754186454059
5.5200000000000	1.2093887824585	-0.49828164618010
5.5300000000000	1.2120050450783	-0.49900148894230
5.5400000000000	1.2146382179544	-0.49970122023413
5.5500000000000	1.2172881541473	-0.50038066713381
5.5600000000000	1.2199547051526	-0.50103965641201
5.5700000000000	1.2226377208596	-0.50167801455380
5.5800000000000	1.2253370495113	-0.50229556778150
5.5900000000000	1.2280525376643	-0.50289214207837
5.6000000000000	1.2307840301492	-0.50346756321323
5.6100000000000	1.2335313700309	-0.50402165676590
5.6200000000000	1.2362943985703	-0.50455424815353
5.6300000000000	1.2390729551849	-0.50506516265784
5.6400000000000	1.2418668774114	-0.50555422545319
5.6500000000000	1.2446760008675	-0.50602126163560
5.6600000000000	1.2475001592149	-0.50646609625260
5.6700000000000	1.2503391841222	-0.50688855433402
5.6800000000000	1.2531929052286	-0.50728846092363
5.6900000000000	1.2560611501079	-0.50766564111171
5.7000000000000	1.2589437442331	-0.50801992006848
5.7100000000000	1.2618405109416	-0.50835112307849
5.7200000000000	1.2647512714004	-0.50865907557583
5.7300000000000	1.2676758445726	-0.50894360318029
5.7400000000000	1.2706140471837	-0.50920453173442
5.7500000000000	1.2735656936893	-0.50944168734145
5.7600000000000	1.2765305962422	-0.50965489640421
5.7700000000000	1.2795085646616	-0.50984398566478
5.7800000000000	1.2824994064016	-0.51000878224523
5.7900000000000	1.2855029265208	-0.51014911368913
5.8000000000000	1.2885189276532	-0.51026480800398
5.8100000000000	1.2915472099788	-0.51035569370459
5.8200000000000	1.2945875711951	-0.51042159985728
5.8300000000000	1.2976398064900	-0.51046235612502
5.8400000000000	1.3007037085148	-0.51047779281345
5.8500000000000	1.3037790673579	-0.51046774091772
5.8600000000000	1.3068656705198	-0.51043203217033
5.8700000000000	1.3099633028884	-0.51037049908971
5.8800000000000	1.3130717467156	-0.51028297502977
5.8900000000000	1.3161907815941	-0.51016929423026
5.9000000000000	1.3193201844357	-0.51002929186797
5.9100000000000	1.3224597294502	-0.50986280410887
5.9200000000000	1.3256091881252	-0.50966966816095
5.9300000000000	1.3287683292070	-0.50944972232802
5.9400000000000	1.3319369186822	-0.50920280606426
5.9500000000000	1.3351147197605	-0.50892876002962
5.9600000000000	1.3383014928584	-0.50862742614597
5.9700000000000	1.3414969955843	-0.50829864765413
5.9800000000000	1.3447009827237	-0.50794226917160
5.9900000000000	1.3479132062266	-0.50755813675109
6.0000000000000	1.3511334151957	-0.50714609793980
6.0100000000000	1.3543613558747	-0.50670600183948
6.0200000000000	1.3575967716396	-0.50623769916711
6.0300000000000	1.3608394029895	-0.50574104231643
6.0400000000000	1.3640889875396	-0.50521588542006
6.0500000000000	1.3673452600150	-0.50466208441236
6.0600000000000	1.3706079522459	-0.50407949709286
6.0700000000000	1.3738767931641	-0.50346798319048
6.0800000000000	1.3771515088005	-0.50282740442823
6.0900000000000	1.3804318222847	-0.50215762458857
6.1000000000000	1.3837174538447	-0.50145850957937
6.1100000000000	1.3870081208094	-0.50072992750037
6.1200000000000	1.3903035376113	-0.49997174871025
6.1300000000000	1.3936034157914	-0.49918384589413
6.1400000000000	1.3969074640050	-0.49836609413163
6.1500000000000	1.4002153880296	-0.49751837096533
6.1600000000000	1.4035268907738	-0.49664055646969
6.1700000000000	1.4068416722875	-0.49573253332040
6.1800000000000	1.4101594297744	-0.49479418686408
6.1900000000000	1.4134798576057	-0.49382540518830
6.2000000000000	1.4168026473349	-0.49282607919200
6.2100000000000	1.4201274877148	-0.49179610265611
6.2200000000000	1.4234540647164	-0.49073537231451
6.2300000000000	1.4267820615481	-0.48964378792511
6.2400000000000	1.4301111586784	-0.48852125234122
6.2500000000000	1.4334410338586	-0.48736767158304
6.2600000000000	1.4367713621485	-0.48618295490921
6.2700000000000	1.4401018159427	-0.48496701488854
6.2800000000000	1.4434320649998	-0.48371976747171
6.2900000000000	1.4467617764723	-0.48244113206301
6.3000000000000	1.4500906149387	-0.48113103159204
6.3100000000000	1.4534182424379	-0.47978939258534
6.3200000000000	1.4567443185040	-0.47841614523788
6.3300000000000	1.4600685002049	-0.47701122348446
6.3400000000000	1.4633904421806	-0.47557456507083
6.3500000000000	1.4667097966849	-0.47410611162461
6.3600000000000	1.4700262136284	-0.47260580872596
6.3700000000000	1.4733393406231	-0.47107360597783
6.3800000000000	1.4766488230291	-0.46950945707593
6.3900000000000	1.4799543040035	-0.46791331987820
6.4000000000000	1.4832554245504	-0.46628515647387
6.4100000000000	1.4865518235735	-0.46462493325198
6.4200000000000	1.4898431379303	-0.46293262096929
6.4300000000000	1.4931290024879	-0.46120819481768
6.4400000000000	1.4964090501812	-0.45945163449081
6.4500000000000	1.4996829120727	-0.45766292425003
6.4600000000000	1.5029502174143	-0.45584205298966
6.4700000000000	1.5062105937107	-0.45398901430133
6.4800000000000	1.5094636667848	-0.45210380653750
6.4900000000000	1.5127090608455	-0.45018643287406
6.5000000000000	1.5159463985564	-0.44823690137198
6.5100000000000	1.5191753011072	-0.44625522503792
6.5200000000000	1.5223953882864	-0.44424142188371
6.5300000000000	1.5256062785561	-0.44219551498484
6.5400000000000	1.5288075891284	-0.44011753253761
6.5500000000000	1.5319989360441	-0.43800750791516
6.5600000000000	1.5351799342525	-0.43586547972215
6.5700000000000	1.5383501976932	-0.43369149184813
6.5800000000000	1.5415093393803	-0.43148559351950
6.5900000000000	1.5446569714870	-0.42924783935002
6.6000000000000	1.5477927054334	-0.42697828938984
6.6100000000000	1.5509161519747	-0.42467700917294
6.6200000000000	1.5540269212920	-0.42234406976298
6.6300000000000	1.5571246230839	-0.41997954779752
6.6400000000000	1.5602088666608	-0.41758352553045
6.6500000000000	1.5632792610391	-0.41515609087274
6.6600000000000	1.5663354150388	-0.41269733743134
6.6700000000000	1.5693769373812	-0.41020736454618
6.6800000000000	1.5724034367889	-0.40768627732530
