! TOUCHSTONE file generated by CST MICROWAVE STUDIO
! Date and time: Sun Feb  2 21:56:05 2025
! Project name: MMA_UnitCell.cst
! Parameters = {a=0.5; d=0.035; h=9; p=3; phi=0; r_1=2; r_2=2.7; s=0.2; t=0.2; theta=0; w=12}
! Header version: 2024
! Port assignment regex: !\s*Touchstone port\s*([0-9]+)\s*=\s*(CST MWS port|CST DES external port|CST DES block port)\s*(.+)\s* \(\"(.*)\"\)(\s*mode\s*([0-9]+))?.*
! Touchstone port assignment:
! Touchstone port 1 = CST MWS port Zmin ("") mode 1
! Touchstone port 2 = CST MWS port Zmin ("") mode 2
! Touchstone port 3 = CST MWS port Zmax ("") mode 1
! Touchstone port 4 = CST MWS port Zmax ("") mode 2
! S-Parameters are not renormalized. Each port impedance will be approximated by the real part at minimum frequency. The values are described via the [Reference] keyword.
! Default impedance is overridden by [Reference]
[Version] 2.0
# GHz S RI R 376.73
[Number of Ports] 4
[Reference]
376.73 376.73 376.73 376.73 
[Number of Frequencies] 1001
[Network Data]
2.7                            0               0                0               0                0               0                0               0
                               0               0                0               0                0               0                0               0
                               0               0                0               0      0.355276659      0.24808531   0.000194340065  1.94823838e-05
                               0               0                0               0   0.000193986796  1.98468608e-05      0.357326763     0.248138511
2.71                           0               0                0               0           -5e-66               0           -5e-66               0
                               0               0                0               0           -5e-66               0           -5e-66               0
                               0               0                0               0       0.35299857     0.242764258   0.000195148126  1.61842622e-05
                               0               0                0               0   0.000194789677  1.65458342e-05      0.355052394     0.242780339
2.72                           0               0                0               0           -5e-66               0           -5e-66               0
                               0               0                0               0           -5e-66               0           -5e-66               0
                               0               0                0               0        0.3506573     0.237536515    0.00019588745  1.28787201e-05
                               0               0                0               0   0.000195525254  1.32371151e-05      0.352713971     0.237515499
2.73                           0               0                0               0           -5e-66               0           -5e-66               0
                               0               0                0               0           -5e-66               0           -5e-66               0
                               0               0                0               0      0.348255407     0.232402415   0.000196558218  9.56747628e-06
                               0               0                0               0   0.000196193608  9.92240231e-06      0.350314058      0.23234435
2.74                           0               0                0               0           -5e-66               0           -5e-66               0
                               0               0                0               0           -5e-66               0           -5e-66               0
                               0               0                0               0      0.345795423     0.227362225   0.000197160662  6.25223413e-06
                               0               0                0               0   0.000196794878  6.60338347e-06      0.347855196     0.227267183
2.75                           0               0                0               0           -5e-66               0           -5e-66               0
                               0               0                0               0           -5e-66               0           -5e-66               0
                               0               0                0               0      0.343279856     0.222416143   0.000197695068  2.93467989e-06
                               0               0                0               0   0.000197329259   3.2817324e-06      0.345339902     0.222284222
2.76                           0               0                0               0           -5e-66               0           -5e-66               0
                               0               0                0               0           -5e-66               0           -5e-66               0
                               0               0                0               0      0.340711186     0.217564305   0.000198161774 -3.83519486e-07
                               0               0                0               0   0.000197796999 -4.08930566e-08      0.342770667     0.217395627
2.77                           0               0                0               0           -5e-66               0           -5e-66               0
                               0               0                0               0           -5e-66               0           -5e-66               0
                               0               0                0               0      0.338091866     0.212806783   0.000198561169 -3.70071838e-06
                               0               0                0               0   0.000198198402 -3.36285321e-06      0.340149955     0.212601491
2.78                           0               0                0               0           -5e-66               0           -5e-66               0
                               0               0                0               0           -5e-66               0           -5e-66               0
                               0               0                0               0       0.33542432      0.20814359    0.00019889369 -7.01529438e-06
                               0               0                0               0   0.000198533824 -6.68252867e-06        0.3374802      0.20790185
2.79                           0               0                0               0           -5e-66               0           -5e-66               0
                               0               0                0               0           -5e-66               0           -5e-66               0
                               0               0                0               0      0.332710941     0.203574677   0.000199159825 -1.03256502e-05
                               0               0                0               0   0.000198803673 -9.99832235e-06      0.334763808     0.203296676
2.8                            0               0                0               0           -5e-66               0           -5e-66               0
                               0               0                0               0           -5e-66               0           -5e-66               0
                               0               0                0               0      0.329954089      0.19909994   0.000199360105 -1.36302152e-05
                               0               0                0               0   0.000199008406 -1.33086615e-05       0.33200315     0.198785887
2.81                           0               0                0               0           -5e-66               0           -5e-66               0
                               0               0                0               0           -5e-66               0           -5e-66               0
                               0               0                0               0      0.327156091     0.194719218    0.00019949511 -1.69274475e-05
                               0               0                0               0   0.000199148528 -1.66119993e-05      0.329200566     0.194369341
2.82                           0               0                0               0           -5e-66               0           -5e-66               0
                               0               0                0               0           -5e-66               0           -5e-66               0
                               0               0                0               0      0.324319239     0.190432299    0.00019956546  -2.0215835e-05
                               0               0                0               0   0.000199224592  -1.9906817e-05      0.326358364     0.190046846
2.83                           0               0                0               0           -5e-66               0           -5e-66               0
                               0               0                0               0           -5e-66               0           -5e-66               0
                               0               0                0               0      0.321445793     0.186238917    0.00019957182 -2.34938973e-05
                               0               0                0               0   0.000199237195 -2.31916254e-05      0.323478814     0.185818153
2.84                           0               0                0               0           -5e-66               0           -5e-66               0
                               0               0                0               0           -5e-66               0           -5e-66               0
                               0               0                0               0      0.318537972     0.182138756   0.000199514893 -2.67601869e-05
                               0               0                0               0   0.000199186981 -2.64649662e-05      0.320564151     0.181682966
2.85                           0               0                0               0           -5e-66               0           -5e-66               0
                               0               0                0               0           -5e-66               0           -5e-66               0
                               0               0                0               0      0.315597961     0.178131455   0.000199395423 -3.00132904e-05
                               0               0                0               0   0.000199074631 -2.97254138e-05      0.317616575     0.177640939
2.86                           0               0                0               0           -4e-66               0           -4e-66               0
                               0               0                0               0           -4e-66               0           -4e-66               0
                               0               0                0               0      0.312627906     0.174216602   0.000199214188 -3.32518298e-05
                               0               0                0               0    0.00019890087 -3.29715765e-05      0.314638247      0.17369168
2.87                           0               0                0               0           -4e-66               0           -4e-66               0
                               0               0                0               0           -4e-66               0           -4e-66               0
                               0               0                0               0      0.309629915     0.170393746   0.000198972005 -3.64744634e-05
                               0               0                0               0   0.000198666459 -3.62020978e-05      0.311631289      0.16983475
2.88                           0               0                0               0           -4e-66               0           -4e-66               0
                               0               0                0               0           -4e-66               0           -4e-66               0
                               0               0                0               0      0.306606057     0.166662391    0.00019866972 -3.96798873e-05
                               0               0                0               0   0.000198372196 -3.94156574e-05      0.308597785     0.166069668
2.89                           0               0                0               0           -4e-66               0           -4e-66               0
                               0               0                0               0           -4e-66               0           -4e-66               0
                               0               0                0               0      0.303558361     0.163021999   0.000198308213 -4.28668355e-05
                               0               0                0               0   0.000198018914 -4.26109724e-05      0.305539781     0.162395914
2.9                            0               0                0               0           -4e-66               0           -4e-66               0
                               0               0                0               0           -4e-66               0           -4e-66               0
                               0               0                0               0      0.300488816     0.159471995   0.000197888394 -4.60340813e-05
                               0               0                0               0   0.000197607478 -4.57867981e-05      0.302459282     0.158812924
2.91                           0               0                0               0           -4e-66               0           -4e-66               0
                               0               0                0               0           -4e-66               0           -4e-66               0
                               0               0                0               0      0.297399371     0.156011768   0.000197411198 -4.91804377e-05
                               0               0                0               0   0.000197138785  -4.8941929e-05      0.299358252     0.155320099
2.92                           0               0                0               0           -4e-66               0           -4e-66               0
                               0               0                0               0           -4e-66               0           -4e-66               0
                               0               0                0               0      0.294291934     0.152640668   0.000196877589  -5.2304758e-05
                               0               0                0               0   0.000196613758 -5.20751994e-05      0.296238615     0.151916803
2.93                           0               0                0               0           -4e-66               0           -4e-66               0
                               0               0                0               0           -4e-66               0           -4e-66               0
                               0               0                0               0      0.291168372     0.149358015   0.000196288554 -5.54059365e-05
                               0               0                0               0   0.000196033349  -5.5185484e-05      0.293102254     0.148602367
2.94                           0               0                0               0           -4e-66               0           -4e-66               0
                               0               0                0               0           -4e-66               0           -4e-66               0
                               0               0                0               0      0.288030509     0.146163095   0.000195645101 -5.84829086e-05
                               0               0                0               0   0.000195398535 -5.82716985e-05      0.289951011     0.145376087
2.95                           0               0                0               0           -4e-66               0           -4e-66               0
                               0               0                0               0           -4e-66               0           -4e-66               0
                               0               0                0               0      0.284880131     0.143055164   0.000194948259 -6.15346511e-05
                               0               0                0               0   0.000194710315 -6.13327999e-05      0.286786687     0.142237231
2.96                           0               0                0               0           -4e-66               0           -4e-66               0
                               0               0                0               0           -4e-66               0           -4e-66               0
                               0               0                0               0      0.281718981      0.14003345   0.000194199076 -6.45601829e-05
                               0               0                0               0   0.000193969708  -6.4367787e-05      0.283611041     0.139185034
2.97                           0               0                0               0           -4e-66               0           -4e-66               0
                               0               0                0               0           -4e-66               0           -4e-66               0
                               0               0                0               0      0.278548759     0.137097152   0.000193398616 -6.75585646e-05
                               0               0                0               0   0.000193177755 -6.73757006e-05      0.280425791     0.136218707
2.98                           0               0                0               0           -4e-66               0           -4e-66               0
                               0               0                0               0           -4e-66               0           -4e-66               0
                               0               0                0               0      0.275371125     0.134245446   0.000192547959 -7.05288985e-05
                               0               0                0               0   0.000192335512 -7.03556234e-05      0.277232613     0.133337432
2.99                           0               0                0               0           -4e-66               0           -4e-66               0
                               0               0                0               0           -4e-66               0           -4e-66               0
                               0               0                0               0      0.272187699     0.131477482   0.000191648197 -7.34703292e-05
                               0               0                0               0    0.00019144405 -7.33066803e-05      0.274033143     0.130540368
3                              0               0                0               0                0               0                0               0
                               0               0                0               0                0               0                0               0
                               0               0                0               0      0.269000056     0.128792389   0.000190700433 -7.63820427e-05
                               0               0                0               0   0.000190504456 -7.62280382e-05      0.270828973      0.12782665
3.01                           0               0                0               0           -4e-66               0           -4e-66               0
                               0               0                0               0           -4e-66               0           -4e-66               0
                               0               0                0               0      0.265809734     0.126189274   0.000189705781 -7.92632669e-05
                               0               0                0               0   0.000189517826 -7.91189063e-05      0.267621656     0.125195392
