! TOUCHSTONE file generated by CST MICROWAVE STUDIO
! Date and time: Sun Feb  2 21:56:32 2025
! Project name: MMA_UnitCell.cst
! Parameters = {a=0.5; d=0.035; h=9; p=3; phi=0; r_1=2; r_2=2.7; s=0.2; t=0.2; theta=0; w=12}
! Header version: 2024
! Port assignment regex: !\s*Touchstone port\s*([0-9]+)\s*=\s*(CST MWS port|CST DES external port|CST DES block port)\s*(.+)\s* \(\"(.*)\"\)(\s*mode\s*([0-9]+))?.*
! Touchstone port assignment:
! Touchstone port 1 = CST MWS port Zmin ("") mode 1
! Touchstone port 2 = CST MWS port Zmin ("") mode 2
! Touchstone port 3 = CST MWS port Zmax ("") mode 1
! Touchstone port 4 = CST MWS port Zmax ("") mode 2
! S-Parameters are not renormalized. Each port impedance will be approximated by the real part at minimum frequency. The values are described via the [Reference] keyword.
! Default impedance is overridden by [Reference]
[Version] 2.0
# GHz S DB R 376.73
[Number of Ports] 4
[Reference]
376.73 376.73 376.73 376.73 
[Number of Frequencies] 1001
[Network Data]
2.7                         -200               0             -200               0             -200               0             -200               0
                            -200               0             -200               0             -200               0             -200               0
                            -200               0             -200               0      -7.26378823       34.926122      -74.1853251      5.72471429
                            -200               0             -200               0      -74.1993335      5.84162673      -7.22952326      34.7772825
2.71                        -200               0             -200               0             -200             180             -200             180
                            -200               0             -200               0             -200             180             -200             180
                            -200               0             -200               0      -7.36263416      34.5170905      -74.1629441      4.74087415
                            -200               0             -200               0      -74.1774587      4.85516635      -7.32817719       34.363827
2.72                        -200               0             -200               0             -200             180             -200             180
                            -200               0             -200               0             -200             180             -200             180
                            -200               0             -200               0      -7.46215961      34.1138539      -74.1411359      3.76152672
                            -200               0             -200               0      -74.1560832      3.87303059      -7.42751716      33.9560911
2.73                        -200               0             -200               0             -200             180             -200             180
                            -200               0             -200               0             -200             180             -200             180
                            -200               0             -200               0      -7.56236141      33.7165006      -74.1198985      2.78667413
                            -200               0             -200               0      -74.1352088      2.89524114      -7.52754022      33.5541626
2.74                        -200               0             -200               0             -200             180             -200             180
                            -200               0             -200               0             -200             180             -200             180
                            -200               0             -200               0      -7.66323632      33.3251203      -74.0992295      1.81631882
                            -200               0             -200               0      -74.1148371      1.92181884      -7.62824337      33.1581303
2.75                        -200               0             -200               0             -200             180             -200             180
                            -200               0             -200               0             -200             180             -200             180
                            -200               0             -200               0      -7.76478101      32.9398045      -74.0791264     0.850463416
                            -200               0             -200               0      -74.0949693     0.952783611      -7.72962352      32.7680849
2.76                        -200               0             -200               0             -200             180             -200             180
                            -200               0             -200               0             -200             180             -200             180
                            -200               0             -200               0      -7.86699209      32.5606459      -74.0595861      -0.1108893
                            -200               0             -200               0      -74.0756059   -0.0118454756      -7.83167753      32.3841183
2.77                        -200               0             -200               0             -200             180             -200             180
                            -200               0             -200               0             -200             180             -200             180
                            -200               0             -200               0      -7.96986606       32.187739      -74.0406053     -1.06773645
                            -200               0             -200               0      -74.0567469    -0.972050268      -7.93440215      32.0063242
2.78                        -200               0             -200               0             -200             180             -200             180
                            -200               0             -200               0             -200             180             -200             180
                            -200               0             -200               0      -8.07339932        31.82118      -74.0221803     -2.02007514
                            -200               0             -200               0      -74.0383922     -1.92781352      -8.03779407       31.634798
2.79                        -200               0             -200               0             -200             180             -200             180
                            -200               0             -200               0             -200             180             -200             180
                            -200               0             -200               0      -8.17758817      31.4610669      -74.0043071     -2.96790248
                            -200               0             -200               0       -74.020541     -2.87911893      -8.14184987      31.2696366
2.8                         -200               0             -200               0             -200             180             -200             180
                            -200               0             -200               0             -200             180             -200             180
                            -200               0             -200               0      -8.28242879      31.1074994      -73.9869814     -3.91121567
                            -200               0             -200               0      -74.0031922     -3.82595111      -8.24656602       30.910939
2.81                        -200               0             -200               0             -200             180             -200             180
                            -200               0             -200               0             -200             180             -200             180
                            -200               0             -200               0      -8.38791723      30.7605794      -73.9701988     -4.85001205
                            -200               0             -200               0      -73.9863441     -4.76829564      -8.35193889       30.558806
2.82                        -200               0             -200               0             -200             180             -200             180
                            -200               0             -200               0             -200             180             -200             180
                            -200               0             -200               0       -8.4940494      30.4204104      -73.9539542     -5.78428913
                            -200               0             -200               0      -73.9699949     -5.70613906      -8.45796471      30.2133405
2.83                        -200               0             -200               0             -200             180             -200             180
                            -200               0             -200               0             -200             180             -200             180
                            -200               0             -200               0      -8.60082106      30.0870984      -73.9382428     -6.71404467
                            -200               0             -200               0      -73.9541422     -6.63946886      -8.56463956      29.8746474
2.84                        -200               0             -200               0             -200             180             -200             180
                            -200               0             -200               0             -200             180             -200             180
                            -200               0             -200               0      -8.70822781      29.7607513      -73.9230591     -7.63927666
                            -200               0             -200               0      -73.9387835     -7.56827353      -8.67195941      29.5428336
2.85                        -200               0             -200               0             -200             180             -200             180
                            -200               0             -200               0             -200             180             -200             180
                            -200               0             -200               0      -8.81626506      29.4414795      -73.9083976     -8.55998346
                            -200               0             -200               0      -73.9239156     -8.49254255      -8.77992003      29.2180087
2.86                        -200               0             -200               0             -200             180             -200             180
                            -200               0             -200               0             -200             180             -200             180
                            -200               0             -200               0      -8.92492804      29.1293955      -73.8942525     -9.47616374
                            -200               0             -200               0      -73.9095354     -9.41226638      -8.88851703      28.9002842
2.87                        -200               0             -200               0             -200             180             -200             180
                            -200               0             -200               0             -200             180             -200             180
                            -200               0             -200               0      -9.03421174      28.8246143      -73.8806177     -10.3878166
                            -200               0             -200               0      -73.8956392     -10.3274365      -8.99774581      28.5897741
2.88                        -200               0             -200               0             -200             180             -200             180
                            -200               0             -200               0             -200             180             -200             180
                            -200               0             -200               0      -9.14411097      28.5272535      -73.8674872     -11.2949415
                            -200               0             -200               0      -73.8822231     -11.2380454      -9.10760159      28.2865952
2.89                        -200               0             -200               0             -200             180             -200             180
                            -200               0             -200               0             -200             180             -200             180
                            -200               0             -200               0      -9.25462026      28.2374332      -73.8548546     -12.1975385
                            -200               0             -200               0      -73.8692828     -12.1440865      -9.21807933      27.9908666
2.9                         -200               0             -200               0             -200             180             -200             180
                            -200               0             -200               0             -200             180             -200             180
                            -200               0             -200               0      -9.36573388      27.9552762      -73.8427133      -13.095608
                            -200               0             -200               0      -73.8568139     -13.0455544      -9.32917377      27.7027101
2.91                        -200               0             -200               0             -200             180             -200             180
                            -200               0             -200               0             -200             180             -200             180
                            -200               0             -200               0      -9.47744583      27.6809079      -73.8310566     -13.9891509
                            -200               0             -200               0      -73.8448117     -13.9424445      -9.44087937      27.4222504
2.92                        -200               0             -200               0             -200             180             -200             180
                            -200               0             -200               0             -200             180             -200             180
                            -200               0             -200               0      -9.58974978      27.4144567      -73.8198777     -14.8781689
                            -200               0             -200               0      -73.8332712     -14.8347534      -9.55319032       27.149615
2.93                        -200               0             -200               0             -200             180             -200             180
                            -200               0             -200               0             -200             180             -200             180
                            -200               0             -200               0      -9.70263907       27.156054      -73.8091696     -15.7626639
                            -200               0             -200               0      -73.8221872     -15.7224786      -9.66610047      26.8849343
2.94                        -200               0             -200               0             -200             180             -200             180
                            -200               0             -200               0             -200             180             -200             180
                            -200               0             -200               0      -9.81610672      26.9058339      -73.7989252     -16.6426387
                            -200               0             -200               0      -73.8115543     -16.6056187      -9.77960336      26.6283417
2.95                        -200               0             -200               0             -200             180             -200             180
                            -200               0             -200               0             -200             180             -200             180
                            -200               0             -200               0      -9.93014531      26.6639337      -73.7891373     -17.5180965
                            -200               0             -200               0       -73.801367     -17.4841732      -9.89369217      26.3799738
2.96                        -200               0             -200               0             -200             180             -200             180
                            -200               0             -200               0             -200             180             -200             180
                            -200               0             -200               0       -10.044747       26.430494      -73.7797986     -18.3890413
                            -200               0             -200               0      -73.7916194     -18.3581427      -10.0083597      26.1399703
2.97                        -200               0             -200               0             -200             180             -200             180
                            -200               0             -200               0             -200             180             -200             180
                            -200               0             -200               0      -10.1599037      26.2056583      -73.7709017     -19.2554774
                            -200               0             -200               0      -73.7823055     -19.2275288      -10.1235983      25.9084742
2.98                        -200               0             -200               0             -200             180             -200             180
                            -200               0             -200               0             -200             180             -200             180
                            -200               0             -200               0      -10.2756065      25.9895736      -73.7624389     -20.1174102
                            -200               0             -200               0      -73.7734193      -20.092334      -10.2393999      25.6856318
2.99                        -200               0             -200               0             -200             180             -200             180
                            -200               0             -200               0             -200             180             -200             180
                            -200               0             -200               0      -10.3918463        25.78239      -73.7544029     -20.9748455
                            -200               0             -200               0      -73.7649544     -20.9525618      -10.3557559      25.4715927
3                           -200               0             -200               0             -200               0             -200               0
                            -200               0             -200               0             -200               0             -200               0
                            -200               0             -200               0      -10.5086132      25.5842613      -73.7467858     -21.8277897
                            -200               0             -200               0      -73.7569045     -21.8082167      -10.4726573      25.2665103
3.01                        -200               0             -200               0             -200             180             -200             180
                            -200               0             -200               0             -200             180             -200             180
                            -200               0             -200               0       -10.625897      25.3953445      -73.7395801     -22.6762499
                            -200               0             -200               0       -73.749263     -22.6593042      -10.5900945       25.070541
