! TOUCHSTONE file generated by CST MICROWAVE STUDIO
! Date and time: Sun Feb  2 21:54:59 2025
! Project name: MMA_UnitCell.cst
! Parameters = {a=0.5; d=0.035; h=9; p=3; phi=0; r_1=2; r_2=2.7; s=0.2; t=0.2; theta=0; w=12}
! Header version: 2024
! Port assignment regex: !\s*Touchstone port\s*([0-9]+)\s*=\s*(CST MWS port|CST DES external port|CST DES block port)\s*(.+)\s* \(\"(.*)\"\)(\s*mode\s*([0-9]+))?.*
! Touchstone port assignment:
! Touchstone port 1 = CST MWS port Zmin ("") mode 1
! Touchstone port 2 = CST MWS port Zmin ("") mode 2
! Touchstone port 3 = CST MWS port Zmax ("") mode 1
! Touchstone port 4 = CST MWS port Zmax ("") mode 2
! S-Parameters are not renormalized. Each port impedance will be approximated by the real part at minimum frequency. The values are described via the [Reference] keyword.
! Default impedance is overridden by [Reference]
[Version] 2.0
# GHz S MA R 376.73
[Number of Ports] 4
[Reference]
376.73 376.73 376.73 376.73 
[Number of Frequencies] 1001
[Network Data]
2.7                            0               0                0               0                0               0                0               0
                               0               0                0               0                0               0                0               0
                               0               0                0               0       0.43332185       34.926122   0.000195314168      5.72471429
                               0               0                0               0   0.000194999423      5.84162673      0.435034638      34.7772825
2.71                           0               0                0               0            5e-66             180            5e-66             180
                               0               0                0               0            5e-66             180            5e-66             180
                               0               0                0               0      0.428418575      34.5170905   0.000195818082      4.74087415
                               0               0                0               0   0.000195491133      4.85516635      0.430121489       34.363827
2.72                           0               0                0               0            5e-66             180            5e-66             180
                               0               0                0               0            5e-66             180            5e-66             180
                               0               0                0               0      0.423537647      34.1138539   0.000196310353      3.76152672
                               0               0                0               0    0.00019597282      3.87303059       0.42523024      33.9560911
2.73                           0               0                0               0            5e-66             180            5e-66             180
                               0               0                0               0            5e-66             180            5e-66             180
                               0               0                0               0      0.418679724      33.7165006   0.000196790929      2.78667413
                               0               0                0               0   0.000196444359      2.89524114      0.420361554      33.5541626
2.74                           0               0                0               0            5e-66             180            5e-66             180
                               0               0                0               0            5e-66             180            5e-66             180
                               0               0                0               0      0.413845449      33.3251203   0.000197259771      1.81631882
                               0               0                0               0   0.000196905634      1.92181884      0.415516076      33.1581303
2.75                           0               0                0               0            5e-66             180            5e-66             180
                               0               0                0               0            5e-66             180            5e-66             180
                               0               0                0               0      0.409035451      32.9398045   0.000197716849     0.850463416
                               0               0                0               0   0.000197356546     0.952783611       0.41069444      32.7680849
2.76                           0               0                0               0            5e-66             180            5e-66             180
                               0               0                0               0            5e-66             180            5e-66             180
                               0               0                0               0      0.404250342      32.5606459   0.000198162145      -0.1108893
                               0               0                0               0   0.000197797003   -0.0118454756      0.405897264      32.3841183
2.77                           0               0                0               0            5e-66             180            5e-66             180
                               0               0                0               0            5e-66             180            5e-66             180
                               0               0                0               0      0.399490722       32.187739   0.000198595652     -1.06773645
                               0               0                0               0   0.000198226929    -0.972050268       0.40112515      32.0063242
2.78                           0               0                0               0            5e-66             180            5e-66             180
                               0               0                0               0            5e-66             180            5e-66             180
                               0               0                0               0      0.394757177        31.82118   0.000199017372     -2.02007514
                               0               0                0               0   0.000198646258     -1.92781352      0.396378689       31.634798
2.79                           0               0                0               0            5e-66             180            5e-66             180
                               0               0                0               0            5e-66             180            5e-66             180
                               0               0                0               0      0.390050278      31.4610669   0.000199427317     -2.96790248
                               0               0                0               0   0.000199054935     -2.87911893      0.391658455      31.2696366
2.8                            0               0                0               0            5e-66             180            5e-66             180
                               0               0                0               0            5e-66             180            5e-66             180
                               0               0                0               0      0.385370584      31.1074994    0.00019982551     -3.91121567
                               0               0                0               0   0.000199452917     -3.82595111      0.386965011       30.910939
2.81                           0               0                0               0            5e-66             180            5e-66             180
                               0               0                0               0            5e-66             180            5e-66             180
                               0               0                0               0      0.380718638      30.7605794   0.000200211981     -4.85001205
                               0               0                0               0   0.000199840173     -4.76829564      0.382298906       30.558806
2.82                           0               0                0               0            5e-66             180            5e-66             180
                               0               0                0               0            5e-66             180            5e-66             180
                               0               0                0               0      0.376094974      30.4204104   0.000200586771     -5.78428913
                               0               0                0               0   0.000200216681     -5.70613906      0.377660675      30.2133405
2.83                           0               0                0               0            5e-66             180            5e-66             180
                               0               0                0               0            5e-66             180            5e-66             180
                               0               0                0               0       0.37150011      30.0870984    0.00020094993     -6.71404467
                               0               0                0               0   0.000200582431     -6.63946886       0.37305084      29.8746474
2.84                           0               0                0               0            5e-66             180            5e-66             180
                               0               0                0               0            5e-66             180            5e-66             180
                               0               0                0               0      0.366934553      29.7607513   0.000201301515     -7.63927666
                               0               0                0               0   0.000200937423     -7.56827353      0.368469911      29.5428336
2.85                           0               0                0               0            5e-66             180            5e-66             180
                               0               0                0               0            5e-66             180            5e-66             180
                               0               0                0               0      0.362398797      29.4414795   0.000201641593     -8.55998346
                               0               0                0               0   0.000201281666     -8.49254255      0.363918387      29.2180087
2.86                           0               0                0               0            4e-66             180            4e-66             180
                               0               0                0               0            4e-66             180            4e-66             180
                               0               0                0               0      0.357893325      29.1293955   0.000201970238     -9.47616374
                               0               0                0               0    0.00020161518     -9.41226638      0.359396753      28.9002842
2.87                           0               0                0               0            4e-66             180            4e-66             180
                               0               0                0               0            4e-66             180            4e-66             180
                               0               0                0               0      0.353418609      28.8246143   0.000202287531     -10.3878166
                               0               0                0               0   0.000201937995     -10.3274365      0.354905484      28.5897741
2.88                           0               0                0               0            4e-66             180            4e-66             180
                               0               0                0               0            4e-66             180            4e-66             180
                               0               0                0               0      0.348975109      28.5272535   0.000202593561     -11.2949415
                               0               0                0               0   0.000202250148     -11.2380454      0.350445043      28.2865952
2.89                           0               0                0               0            4e-66             180            4e-66             180
                               0               0                0               0            4e-66             180            4e-66             180
                               0               0                0               0      0.344563275      28.2374332   0.000202888425     -12.1975385
                               0               0                0               0   0.000202551686     -12.1440865      0.346015882      27.9908666
2.9                            0               0                0               0            4e-66             180            4e-66             180
                               0               0                0               0            4e-66             180            4e-66             180
                               0               0                0               0      0.340183548      27.9552762   0.000203172225      -13.095608
                               0               0                0               0   0.000202842664     -13.0455544      0.341618445      27.7027101
2.91                           0               0                0               0            4e-66             180            4e-66             180
                               0               0                0               0            4e-66             180            4e-66             180
                               0               0                0               0      0.335836356      27.6809079    0.00020344507     -13.9891509
                               0               0                0               0   0.000203123147     -13.9424445      0.337253163      27.4222504
2.92                           0               0                0               0            4e-66             180            4e-66             180
                               0               0                0               0            4e-66             180            4e-66             180
                               0               0                0               0       0.33152212      27.4144567   0.000203707076     -14.8781689
                               0               0                0               0   0.000203393206     -14.8347534      0.332920459       27.149615
2.93                           0               0                0               0            4e-66             180            4e-66             180
                               0               0                0               0            4e-66             180            4e-66             180
                               0               0                0               0      0.327241253       27.156054   0.000203958364     -15.7626639
                               0               0                0               0    0.00020365292     -15.7224786      0.328620746      26.8849343
2.94                           0               0                0               0            4e-66             180            4e-66             180
                               0               0                0               0            4e-66             180            4e-66             180
                               0               0                0               0      0.322994156      26.9058339    0.00020419906     -16.6426387
                               0               0                0               0   0.000203902375     -16.6056187      0.324354429      26.6283417
2.95                           0               0                0               0            4e-66             180            4e-66             180
                               0               0                0               0            4e-66             180            4e-66             180
                               0               0                0               0      0.318781225      26.6639337   0.000204429296     -17.5180965
                               0               0                0               0   0.000204141664     -17.4841732      0.320121904      26.3799738
2.96                           0               0                0               0            4e-66             180            4e-66             180
                               0               0                0               0            4e-66             180            4e-66             180
                               0               0                0               0      0.314602847       26.430494   0.000204649208     -18.3890413
                               0               0                0               0   0.000204370888     -18.3581427      0.315923561      26.1399703
2.97                           0               0                0               0            4e-66             180            4e-66             180
                               0               0                0               0            4e-66             180            4e-66             180
                               0               0                0               0      0.310459402      26.2056583   0.000204858938     -19.2554774
                               0               0                0               0   0.000204590152     -19.2275288       0.31175978      25.9084742
2.98                           0               0                0               0            4e-66             180            4e-66             180
                               0               0                0               0            4e-66             180            4e-66             180
                               0               0                0               0      0.306351263      25.9895736   0.000205058631     -20.1174102
                               0               0                0               0   0.000204799567      -20.092334      0.307630936      25.6856318
2.99                           0               0                0               0            4e-66             180            4e-66             180
                               0               0                0               0            4e-66             180            4e-66             180
                               0               0                0               0      0.302278798        25.78239   0.000205248436     -20.9748455
                               0               0                0               0   0.000204999253     -20.9525618      0.303537396      25.4715927
3                              0               0                0               0                0               0                0               0
                               0               0                0               0                0               0                0               0
                               0               0                0               0      0.298242367      25.5842613   0.000205428507     -21.8277897
                               0               0                0               0   0.000205189331     -21.8082167      0.299479524      25.2665103
3.01                           0               0                0               0            4e-66             180            4e-66             180
                               0               0                0               0            4e-66             180            4e-66             180
                               0               0                0               0      0.294242328      25.3953445      0.000205599     -22.6762499
                               0               0                0               0   0.000205369928     -22.6593042      0.295457674       25.070541
