freq	s11_Re	s11_Im
2.7000000000000	0.34388668444366	0.24750974777609
2.7100000000000	0.34161254123371	0.24237703902857
2.7200000000000	0.33927995549435	0.23733706469905
2.7300000000000	0.33689142067539	0.23238998413443
2.7400000000000	0.33444940074844	0.22753589438917
2.7500000000000	0.33195632889225	0.22277483211065
2.7600000000000	0.32941460626841	0.21810677543166
2.7700000000000	0.32682660088592	0.21353164586646
2.7800000000000	0.32419464655232	0.20904931020672
2.7900000000000	0.32152104190969	0.20465958241405
2.8000000000000	0.31880804955309	0.20036222550599
2.8100000000000	0.31605789522932	0.19615695343223
2.8200000000000	0.31327276711375	0.19204343293856
2.8300000000000	0.31045481516277	0.18802128541561
2.8400000000000	0.30760615053950	0.18409008873004
2.8500000000000	0.30472884511033	0.18024937903593
2.8600000000000	0.30182493100980	0.17649865256412
2.8700000000000	0.29889640027130	0.17283736738752
2.8800000000000	0.29594520452118	0.16926494516078
2.8900000000000	0.29297325473366	0.16578077283237
2.9000000000000	0.28998242104405	0.16238420432779
2.9100000000000	0.28697453261790	0.15907456220248
2.9200000000000	0.28395137757343	0.15585113926313
2.9300000000000	0.28091470295493	0.15271320015645
2.9400000000000	0.27786621475464	0.14965998292429
2.9500000000000	0.27480757798064	0.14669070052440
2.9600000000000	0.27174041676863	0.14380454231609
2.9700000000000	0.26866631453498	0.14100067551004
2.9800000000000	0.26558681416898	0.13827824658205
2.9900000000000	0.26250341826200	0.13563638265005
3.0000000000000	0.25941758937142	0.13307419281424
3.0100000000000	0.25633075031713	0.13059076946015
3.0200000000000	0.25324428450862	0.12818518952438
3.0300000000000	0.25015953630055	0.12585651572315
3.0400000000000	0.24707781137504	0.12360379774358
3.0500000000000	0.24400037714850	0.12142607339779
3.0600000000000	0.24092846320141	0.11932236974014
3.0700000000000	0.23786326172917	0.11729170414766
3.0800000000000	0.23480592801236	0.11533308536414
3.0900000000000	0.23175758090467	0.11344551450804
3.1000000000000	0.22871930333704	0.11162798604477
3.1100000000000	0.22569214283633	0.10987948872373
3.1200000000000	0.22267711205727	0.10819900648052
3.1300000000000	0.21967518932604	0.10658551930489
3.1400000000000	0.21668731919429	0.10503800407505
3.1500000000000	0.21371441300234	0.10355543535875
3.1600000000000	0.21075734945018	0.10213678618186
3.1700000000000	0.20781697517522	0.10078102876500
3.1800000000000	0.20489410533572	0.099487135229003
3.1900000000000	0.20198952419867	0.098254078269620
3.2000000000000	0.19910398573126	0.097080831802425
3.2100000000000	0.19623821419496	0.095966371578419
3.2200000000000	0.19339290474126	0.094909675771109
3.2300000000000	0.19056872400829	0.093909725535757
3.2400000000000	0.18776631071743	0.092965505541507
3.2500000000000	0.18498627626928	0.092076004477121
3.2600000000000	0.18222920533810	0.091240215531024
3.2700000000000	0.17949565646425	0.090457136846388
3.2800000000000	0.17678616264389	0.089725771951981
3.2900000000000	0.17410123191533	0.089045130169475
3.3000000000000	0.17144134794161	0.088414226997952
3.3100000000000	0.16880697058870	0.087832084476288
3.3200000000000	0.16619853649888	0.087297731524138
3.3300000000000	0.16361645965885	0.086810204262201
3.3400000000000	0.16106113196228	0.086368546312448
3.3500000000000	0.15853292376623	0.085971809079013
3.3600000000000	0.15603218444128	0.085619052010372
3.3700000000000	0.15355924291499	0.085309342843510
3.3800000000000	0.15111440820842	0.085041757830687
3.3900000000000	0.14869796996546	0.084815381949453
3.4000000000000	0.14631019897471	0.084629309096533
3.4100000000000	0.14395134768380	0.084482642266179
3.4200000000000	0.14162165070586	0.084374493713604
3.4300000000000	0.13932132531802	0.084303985104060
3.4400000000000	0.13705057195188	0.084270247648149
3.4500000000000	0.13480957467570	0.084272422223905
3.4600000000000	0.13259850166833	0.084309659486210
3.4700000000000	0.13041750568469	0.084381119964054
3.4800000000000	0.12826672451287	0.084485974146168
3.4900000000000	0.12614628142266	0.084623402555518
3.5000000000000	0.12405628560555	0.084792595813173
3.5100000000000	0.12199683260622	0.084992754691982
3.5200000000000	0.11996800474540	0.085223090160561
3.5300000000000	0.11796987153420	0.085482823418011
3.5400000000000	0.11600249007988	0.085771185919805
3.5500000000000	0.11406590548311	0.086087419395276
3.5600000000000	0.11216015122673	0.086430775857093
3.5700000000000	0.11028524955609	0.086800517603140
3.5800000000000	0.10844121185096	0.087195917211160
3.5900000000000	0.10662803898918	0.087616257526551
3.6000000000000	0.10484572170199	0.088060831643650
3.6100000000000	0.10309424092118	0.088528942880870
3.6200000000000	0.10137356811822	0.089019904750001
3.6300000000000	0.099683665635241	0.089533040920013
3.6400000000000	0.098024487008224	0.090067685175659
3.6500000000000	0.096395977282256	0.090623181371181
3.6600000000000	0.094798073319119	0.091198883379398
3.6700000000000	0.093230704097233	0.091794155036460
3.6800000000000	0.091693791004087	0.092408370082535
3.6900000000000	0.090187248121256	0.093040912098667
3.7000000000000	0.088710982502131	0.093691174440078
3.7100000000000	0.087264894442460	0.094358560166116
3.7200000000000	0.085848877743840	0.095042481967112
3.7300000000000	0.084462819970245	0.095742362088327
3.7400000000000	0.083106602697746	0.096457632251224
3.7500000000000	0.081780101757514	0.097187733572249
3.7600000000000	0.080483187472249	0.097932116479322
3.7700000000000	0.079215724886140	0.098690240626209
3.7800000000000	0.077977573988496	0.099461574804965
3.7900000000000	0.076768589931151	0.10024559685660
3.8000000000000	0.075588623239787	0.10104179358013
3.8100000000000	0.074437520019277	0.10184966064020
3.8200000000000	0.073315122153187	0.10266870247336
3.8300000000000	0.072221267497548	0.10349843219318
3.8400000000000	0.071155790069027	0.10433837149434
3.8500000000000	0.070118520227606	0.10518805055578
3.8600000000000	0.069109284853906	0.10604700794311
3.8700000000000	0.068127907521253	0.10691479051025
3.8800000000000	0.067174208662626	0.10779095330061
3.8900000000000	0.066248005732586	0.10867505944774
3.9000000000000	0.065349113364304	0.10956668007560
3.9100000000000	0.064477343521818	0.11046539419861
3.9200000000000	0.063632505647600	0.11137078862149
3.9300000000000	0.062814406805580	0.11228245783897
3.9400000000000	0.062022851819709	0.11320000393554
3.9500000000000	0.061257643408179	0.11412303648521
3.9600000000000	0.060518582313410	0.11505117245138
3.9700000000000	0.059805467427901	0.11598403608700
3.9800000000000	0.059118095916056	0.11692125883481
3.9900000000000	0.058456263332078	0.11786247922810
4.0000000000000	0.057819763734035	0.11880734279169
4.0100000000000	0.057208389794199	0.11975550194339
4.0200000000000	0.056621932905749	0.12070661589594
4.0300000000000	0.056060183285932	0.12166035055946
4.0400000000000	0.055522930075781	0.12261637844446
4.0500000000000	0.055009961436475	0.12357437856545
4.0600000000000	0.054521064642433	0.12453403634525
4.0700000000000	0.054056026171222	0.12549504351986
4.0800000000000	0.053614631790387	0.12645709804417
4.0900000000000	0.053196666641252	0.12741990399831
4.1000000000000	0.052801915319805	0.12838317149486
4.1100000000000	0.052430161954733	0.12934661658677
4.1200000000000	0.052081190282691	0.13030996117616
4.1300000000000	0.051754783720869	0.13127293292395
4.1400000000000	0.051450725436959	0.13223526516030
4.1500000000000	0.051168798416564	0.13319669679605
4.1600000000000	0.050908785528143	0.13415697223493
4.1700000000000	0.050670469585562	0.13511584128676
4.1800000000000	0.050453633408297	0.13607305908153
4.1900000000000	0.050258059879391	0.13702838598449
4.2000000000000	0.050083532001196	0.13798158751209
4.2100000000000	0.049929832948993	0.13893243424897
4.2200000000000	0.049796746122530	0.13988070176587
4.2300000000000	0.049684055195554	0.14082617053850
4.2400000000000	0.049591544163389	0.14176862586744
4.2500000000000	0.049518997388617	0.14270785779900
4.2600000000000	0.049466199644931	0.14364366104703
4.2700000000000	0.049432936159193	0.14457583491581
4.2800000000000	0.049418992651770	0.14550418322383
4.2900000000000	0.049424155375198	0.14642851422863
4.3000000000000	0.049448211151213	0.14734864055264
4.3100000000000	0.049490947406208	0.14826437910995
4.3200000000000	0.049552152205170	0.14917555103416
4.3300000000000	0.049631614284128	0.15008198160713
4.3400000000000	0.049729123081177	0.15098350018878
4.3500000000000	0.049844468766102	0.15187994014787
4.3600000000000	0.049977442268669	0.15277113879370
4.3700000000000	0.050127835305600	0.15365693730891
4.3800000000000	0.050295440406300	0.15453718068307
4.3900000000000	0.050480050937354	0.15541171764742
4.4000000000000	0.050681461125843	0.15628040061048
4.4100000000000	0.050899466081517	0.15714308559456
4.4200000000000	0.051133861817861	0.15799963217335
4.4300000000000	0.051384445272089	0.15884990341037
4.4400000000000	0.051651014324104	0.15969376579833
4.4500000000000	0.051933367814451	0.16053108919946
4.4600000000000	0.052231305561308	0.16136174678680
4.4700000000000	0.052544628376531	0.16218561498626
4.4800000000000	0.052873138080803	0.16300257341976
4.4900000000000	0.053216637517901	0.16381250484910
4.5000000000000	0.053574930568121	0.16461529512084
4.5100000000000	0.053947822160882	0.16541083311197
4.5200000000000	0.054335118286544	0.16619901067653
4.5300000000000	0.054736626007465	0.16697972259295
4.5400000000000	0.055152153468318	0.16775286651243
4.5500000000000	0.055581509905701	0.16851834290798
4.5600000000000	0.056024505657060	0.16927605502440
4.5700000000000	0.056480952168951	0.17002590882903
4.5800000000000	0.056950662004664	0.17076781296336
4.5900000000000	0.057433448851232	0.17150167869533
4.6000000000000	0.057929127525846	0.17222741987258
4.6100000000000	0.058437513981700	0.17294495287635
4.6200000000000	0.058958425313279	0.17365419657619
4.6300000000000	0.059491679761123	0.17435507228549
4.6400000000000	0.060037096716080	0.17504750371763
4.6500000000000	0.060594496723054	0.17573141694303
4.6600000000000	0.061163701484298	0.17640674034679
4.6700000000000	0.061744533862232	0.17707340458716
4.6800000000000	0.062336817881838	0.17773134255463
4.6900000000000	0.062940378732617	0.17838048933182
4.7000000000000	0.063555042770156	0.17902078215394
4.7100000000000	0.064180637517292	0.17965216037005
4.7200000000000	0.064816991664907	0.18027456540494
4.7300000000000	0.065463935072363	0.18088794072165
4.7400000000000	0.066121298767588	0.18149223178468
4.7500000000000	0.066788914946835	0.18208738602382
4.7600000000000	0.067466616974117	0.18267335279864
4.7700000000000	0.068154239380340	0.18325008336359
4.7800000000000	0.068851617862146	0.18381753083370
4.7900000000000	0.069558589280468	0.18437565015088
4.8000000000000	0.070274991658823	0.18492439805089
4.8100000000000	0.071000664181348	0.18546373303079
4.8200000000000	0.071735447190587	0.18599361531704
4.8300000000000	0.072479182185042	0.18651400683417
4.8400000000000	0.073231711816506	0.18702487117393
4.8500000000000	0.073992879887175	0.18752617356512
4.8600000000000	0.074762531346556	0.18801788084385
4.8700000000000	0.075540512288186	0.18849996142436
4.8800000000000	0.076326669946158	0.18897238527045
4.8900000000000	0.077120852691472	0.18943512386727
4.9000000000000	0.077922910028219	0.18988815019379
4.9100000000000	0.078732692589603	0.19033143869561
4.9200000000000	0.079550052133813	0.19076496525839
4.9300000000000	0.080374841539749	0.19118870718169
4.9400000000000	0.081206914802610	0.19160264315331
4.9500000000000	0.082046127029356	0.19200675322410
4.9600000000000	0.082892334434043	0.19240101878321
4.9700000000000	0.083745394333047	0.19278542253380
4.9800000000000	0.084605165140172	0.19315994846924
4.9900000000000	0.085471506361667	0.19352458184966
5.0000000000000	0.086344278591131	0.19387930917900
5.0100000000000	0.087223343504340	0.19422411818246
5.0200000000000	0.088108563853981	0.19455899778435
5.0300000000000	0.088999803464311	0.19488393808637
5.0400000000000	0.089896927225740	0.19519893034628
5.0500000000000	0.090799801089345	0.19550396695697
5.0600000000000	0.091708292061319	0.19579904142589
5.0700000000000	0.092622268197362	0.19608414835491
5.0800000000000	0.093541598597020	0.19635928342051
5.0900000000000	0.094466153397965	0.19662444335435
5.1000000000000	0.095395803770240	0.19687962592421
5.1100000000000	0.096330421910456	0.19712482991527
5.1200000000000	0.097269881035950	0.19736005511174
5.1300000000000	0.098214055378915	0.19758530227884
5.1400000000000	0.099162820180493	0.19780057314512
5.1500000000000	0.10011605168485	0.19800587038509
5.1600000000000	0.10107362713321	0.19820119760216
5.1700000000000	0.10203542475791	0.19838655931196
5.1800000000000	0.10300132377636	0.19856196092591
5.1900000000000	0.10397120438511	0.19872740873511
5.2000000000000	0.10494494775376	0.19888290989458
5.2100000000000	0.10592243601900	0.19902847240769
5.2200000000000	0.10690355227855	0.19916410511099
5.2300000000000	0.10788818058514	0.19928981765925
5.2400000000000	0.10887620594047	0.19940562051084
5.2500000000000	0.10986751428922	0.19951152491332
5.2600000000000	0.11086199251297	0.19960754288933
5.2700000000000	0.11185952842424	0.19969368722276
5.2800000000000	0.11286001076047	0.19976997144515
5.2900000000000	0.11386332917799	0.19983640982235
5.3000000000000	0.11486937424610	0.19989301734145
5.3100000000000	0.11587803744106	0.19993980969794
5.3200000000000	0.11688921114015	0.19997680328307
5.3300000000000	0.11790278861575	0.20000401517155
5.3400000000000	0.11891866402944	0.20002146310936
5.3500000000000	0.11993673242609	0.20002916550189
5.3600000000000	0.12095688972801	0.20002714140219
5.3700000000000	0.12197903272909	0.20001541049957
5.3800000000000	0.12300305908904	0.19999399310832
5.3900000000000	0.12402886732755	0.19996291015666
5.4000000000000	0.12505635681854	0.19992218317589
5.4100000000000	0.12608542778448	0.19987183428980
5.4200000000000	0.12711598129065	0.19981188620419
5.4300000000000	0.12814791923949	0.19974236219663
5.4400000000000	0.12918114436497	0.19966328610644
5.4500000000000	0.13021556022701	0.19957468232479
5.4600000000000	0.13125107120589	0.19947657578501
5.4700000000000	0.13228758249677	0.19936899195313
5.4800000000000	0.13332500010416	0.19925195681848
5.4900000000000	0.13436323083648	0.19912549688463
5.5000000000000	0.13540218230068	0.19898963916029
5.5100000000000	0.13644176289684	0.19884441115059
5.5200000000000	0.13748188181281	0.19868984084835
5.5300000000000	0.13852244901901	0.19852595672562
5.5400000000000	0.13956337526308	0.19835278772531
5.5500000000000	0.14060457206471	0.19817036325301
5.5600000000000	0.14164595171049	0.19797871316897
5.5700000000000	0.14268742724876	0.19777786778014
5.5800000000000	0.14372891248453	0.19756785783249
5.5900000000000	0.14477032197445	0.19734871450336
5.6000000000000	0.14581157102182	0.19712046939400
5.6100000000000	0.14685257567159	0.19688315452223
5.6200000000000	0.14789325270552	0.19663680231522
5.6300000000000	0.14893351963727	0.19638144560244
5.6400000000000	0.14997329470760	0.19611711760869
5.6500000000000	0.15101249687957	0.19584385194730
5.6600000000000	0.15205104583386	0.19556168261340
5.6700000000000	0.15308886196402	0.19527064397736
5.6800000000000	0.15412586637189	0.19497077077830
5.6900000000000	0.15516198086297	0.19466209811777
5.7000000000000	0.15619712794187	0.19434466145347
5.7100000000000	0.15723123080784	0.19401849659316
5.7200000000000	0.15826421335027	0.19368363968863
5.7300000000000	0.15929600014431	0.19334012722973
5.7400000000000	0.16032651644648	0.19298799603864
5.7500000000000	0.16135568819037	0.19262728326410
5.7600000000000	0.16238344198236	0.19225802637578
5.7700000000000	0.16340970509736	0.19188026315884
5.7800000000000	0.16443440547468	0.19149403170839
5.7900000000000	0.16545747171383	0.19109937042428
5.8000000000000	0.16647883307047	0.19069631800575
5.8100000000000	0.16749841945235	0.19028491344635
5.8200000000000	0.16851616141529	0.18986519602883
5.8300000000000	0.16953199015924	0.18943720532018
5.8400000000000	0.17054583752436	0.18900098116670
5.8500000000000	0.17155763598714	0.18855656368924
5.8600000000000	0.17256731865658	0.18810399327838
5.8700000000000	0.17357481927041	0.18764331058982
5.8800000000000	0.17458007219135	0.18717455653978
5.8900000000000	0.17558301240342	0.18669777230047
5.9000000000000	0.17658357550828	0.18621299929568
5.9100000000000	0.17758169772163	0.18572027919637
5.9200000000000	0.17857731586965	0.18521965391638
5.9300000000000	0.17957036738543	0.18471116560823
5.9400000000000	0.18056079030558	0.18419485665888
5.9500000000000	0.18154852326672	0.18367076968569
5.9600000000000	0.18253350550210	0.18313894753234
5.9700000000000	0.18351567683825	0.18259943326486
5.9800000000000	0.18449497769168	0.18205227016772
5.9900000000000	0.18547134906558	0.18149750173994
6.0000000000000	0.18644473254663	0.18093517169129
6.0100000000000	0.18741507030176	0.18036532393859
6.0200000000000	0.18838230507503	0.17978800260192
6.0300000000000	0.18934638018450	0.17920325200106
6.0400000000000	0.19030723951918	0.17861111665188
6.0500000000000	0.19126482753599	0.17801164126276
6.0600000000000	0.19221908925673	0.17740487073115
6.0700000000000	0.19316997026518	0.17679085014009
6.0800000000000	0.19411741670414	0.17616962475484
6.0900000000000	0.19506137527259	0.17554124001952
6.1000000000000	0.19600179322277	0.17490574155381
6.1100000000000	0.19693861835747	0.17426317514968
6.1200000000000	0.19787179902719	0.17361358676816
6.1300000000000	0.19880128412741	0.17295702253619
6.1400000000000	0.19972702309595	0.17229352874349
6.1500000000000	0.20064896591023	0.17162315183939
6.1600000000000	0.20156706308469	0.17094593842988
6.1700000000000	0.20248126566817	0.17026193527450
6.1800000000000	0.20339152524137	0.16957118928337
6.1900000000000	0.20429779391431	0.16887374751428
6.2000000000000	0.20520002432385	0.16816965716975
6.2100000000000	0.20609816963120	0.16745896559412
6.2200000000000	0.20699218351955	0.16674172027074
6.2300000000000	0.20788202019160	0.16601796881915
6.2400000000000	0.20876763436725	0.16528775899225
6.2500000000000	0.20964898128126	0.16455113867360
6.2600000000000	0.21052601668091	0.16380815587466
6.2700000000000	0.21139869682380	0.16305885873209
6.2800000000000	0.21226697847555	0.16230329550509
6.2900000000000	0.21313081890758	0.16154151457276
6.3000000000000	0.21399017589499	0.16077356443146
6.3100000000000	0.21484500771437	0.15999949369223
6.3200000000000	0.21569527314165	0.15921935107824
6.3300000000000	0.21654093145005	0.15843318542221
6.3400000000000	0.21738194240798	0.15764104566391
6.3500000000000	0.21821826627702	0.15684298084767
6.3600000000000	0.21904986380990	0.15603904011989
6.3700000000000	0.21987669624848	0.15522927272657
6.3800000000000	0.22069872532184	0.15441372801092
6.3900000000000	0.22151591324429	0.15359245541091
6.4000000000000	0.22232822271352	0.15276550445689
6.4100000000000	0.22313561690864	0.15193292476919
6.4200000000000	0.22393805948839	0.15109476605580
6.4300000000000	0.22473551458924	0.15025107811002
6.4400000000000	0.22552794682362	0.14940191080812
6.4500000000000	0.22631532127810	0.14854731410704
6.4600000000000	0.22709760351164	0.14768733804211
6.4700000000000	0.22787475955383	0.14682203272478
6.4800000000000	0.22864675590318	0.14595144834033
6.4900000000000	0.22941355952539	0.14507563514566
6.5000000000000	0.23017513785171	0.14419464346705
6.5100000000000	0.23093145877724	0.14330852369794
6.5200000000000	0.23168249065930	0.14241732629672
6.5300000000000	0.23242820231584	0.14152110178454
6.5400000000000	0.23316856302378	0.14061990074315
6.5500000000000	0.23390354251750	0.13971377381273
6.5600000000000	0.23463311098720	0.13880277168969
6.5700000000000	0.23535723907743	0.13788694512461
6.5800000000000	0.23607589788551	0.13696634492002
6.5900000000000	0.23678905896004	0.13604102192833
6.6000000000000	0.23749669429943	0.13511102704971
6.6100000000000	0.23819877635039	0.13417641122997
6.6200000000000	0.23889527800649	0.13323722545848
6.6300000000000	0.23958617260672	0.13229352076609
6.6400000000000	0.24027143393406	0.13134534822302
